T06B8 1511:509 SEGGER J-Link V6.32i Log File (0000ms, 0588ms total)
T06B8 1511:509 DLL Compiled: Jul 24 2018 15:19:55 (0000ms, 0588ms total)
T06B8 1511:509 Logging started @ 2020-06-05 11:20 (0000ms, 0588ms total)
T06B8 1511:509 JLINK_SetWarnOutHandler(...) (0000ms, 0588ms total)
T06B8 1511:509 JLINK_OpenEx(...)
Firmware: J-Link V9 compiled Dec 30 2018 15:35:20
Hardware: V9.20
S/N: 269200585
Feature(s): GDB, RDI, FlashBP, FlashDL, JFlash, RDDI
TELNET listener socket opened on port 19021Device "STM32F072CB" selected.WEBSRV 
Starting webserver (0021ms, 0609ms total)
T06B8 1511:509 WEBSRV Webserver running on local port 19081 (0021ms, 0609ms total)
T06B8 1511:509   returns O.K. (0021ms, 0609ms total)
T06B8 1511:530 JLINK_GetEmuCaps()  returns 0xB9FF7BBF (0000ms, 0609ms total)
T06B8 1511:531 JLINK_TIF_GetAvailable(...) (0000ms, 0609ms total)
T06B8 1511:531 JLINK_SetErrorOutHandler(...) (0000ms, 0609ms total)
T06B8 1511:531 JLINK_ExecCommand("ProjectFile = "E:\STM32F072cube_project\STM32F072_BOOT\MDK-ARM\JLinkSettings.ini"", ...). Device "STM32F072CB" selected.  returns 0x00 (0006ms, 0615ms total)
T06B8 1511:537 JLINK_ExecCommand("Device = STM32F072CBTx", ...). Device "STM32F072CB" selected.  returns 0x00 (0003ms, 0618ms total)
T06B8 1511:540 JLINK_ExecCommand("DisableConnectionTimeout", ...).   returns 0x01 (0000ms, 0618ms total)
T06B8 1511:540 JLINK_GetHardwareVersion()  returns 0x16760 (0000ms, 0618ms total)
T06B8 1511:540 JLINK_GetDLLVersion()  returns 63209 (0001ms, 0619ms total)
T06B8 1511:541 JLINK_GetFirmwareString(...) (0000ms, 0619ms total)
T06B8 1511:541 JLINK_GetDLLVersion()  returns 63209 (0000ms, 0619ms total)
T06B8 1511:541 JLINK_GetCompileDateTime() (0000ms, 0619ms total)
T06B8 1511:541 JLINK_GetFirmwareString(...) (0000ms, 0619ms total)
T06B8 1511:541 JLINK_GetHardwareVersion()  returns 0x16760 (0000ms, 0619ms total)
T06B8 1511:541 JLINK_TIF_Select(JLINKARM_TIF_SWD)  returns 0x00 (0001ms, 0620ms total)
T06B8 1511:542 JLINK_SetSpeed(10000) (0000ms, 0620ms total)
T06B8 1511:543 JLINK_GetId() >0x10B TIF>Found SW-DP with ID 0x0BB11477 >0x0D TIF> >0x28 TIF> >0x0D TIF> >0x28 TIF> >0x0D TIF> >0x28 TIF> >0x0D TIF> >0x28 TIF> >0x0D TIF> >0x21 TIF> >0x0D TIF> >0x28 TIF> >0x0D TIF> >0x28 TIF> >0x0D TIF> >0x28 TIF> >0x0D TIF> >0x21 TIF> >0x0D TIF> >0x21 TIF> >0x0D TIF> >0x28 TIF> >0x0D TIF> >0x21 TIF> >0x0D TIF> >0x21 TIF> >0x0D TIF> >0x28 TIF> >0x0D TIF> >0x21 TIF> >0x0D TIF> >0x21 TIF> >0x0D TIF> >0x28 TIF> >0x0D TIF> >0x28 TIF> >0x0D TIF> >0x28 TIF> >0x0D TIF>
 >0x21 TIF> >0x0D TIF> >0x21 TIF> >0x0D TIF> >0x28 TIF> >0x0D TIF> >0x28 TIF> >0x0D TIF> >0x28 TIF> >0x0D TIF> >0x21 TIF> >0x0D TIF> >0x21 TIF> >0x0D TIF> >0x28 TIF> >0x0D TIF> >0x21 TIF> >0x0D TIF> >0x21 TIF> >0x0D TIF> >0x28 TIF> >0x0D TIF> >0x21 TIF> >0x0D TIF> >0x21 TIF> >0x0D TIF> >0x28 TIF> >0x0D TIF> >0x21 TIF> >0x0D TIF> >0x21 TIF> >0x0D TIF> >0x28 TIF> >0x0D TIF> >0x21 TIF> >0x0D TIF> >0x21 TIF> >0x0D TIF> >0x28 TIF> >0x0D TIF> >0x21 TIF> >0x0D TIF> >0x21 TIF> >0x10B TIF>
Found SW-DP with ID 0x0BB11477 >0x0D TIF> >0x28 TIF> >0x0D TIF> >0x28 TIF> >0x0D TIF> >0x28 TIF> >0x0D TIF> >0x28 TIF> >0x0D TIF> >0x21 TIF> >0x0D TIF> >0x28 TIF>Scanning AP map to find all available APs >0x0D TIF> >0x28 TIF> >0x0D TIF> >0x21 TIF> >0x0D TIF> >0x21 TIF> >0x0D TIF> >0x28 TIF> >0x0D TIF> >0x21 TIF> >0x0D TIF> >0x21 TIF>AP[1]: Stopped AP scan as end of AP map has been reachedAP[0]: AHB-AP (IDR: 0x04770021)Iterating through AP map to find AHB-AP to use >0x42 TIF> >0x28 TIF> >0x0D TIF>
 >0x28 TIF> >0x0D TIF> >0x21 TIF> >0x0D TIF> >0x21 TIF> >0x42 TIF> >0x28 TIF> >0x0D TIF> >0x28 TIF> >0x0D TIF> >0x28 TIF> >0x0D TIF> >0x21 TIF> >0x0D TIF> >0x21 TIF>AP[0]: Core foundAP[0]: AHB-AP ROM base: 0xE00FF000 >0x0D TIF> >0x28 TIF> >0x0D TIF> >0x28 TIF> >0x0D TIF> >0x28 TIF> >0x0D TIF> >0x21 TIF> >0x0D TIF> >0x21 TIF>CPUID register: 0x410CC200. Implementer code: 0x41 (ARM)Found Cortex-M0 r0p0, Little endian. -- Max. mem block: 0x00010E70 -- CPU_ReadMem(4 bytes @ 0xE000EDF0)
 -- CPU_ReadMem(4 bytes @ 0xE0002000)FPUnit: 4 code (BP) slots and 0 literal slots -- CPU_ReadMem(4 bytes @ 0xE000EDFC) -- CPU_ReadMem(4 bytes @ 0xE0001000) -- CPU_WriteMem(4 bytes @ 0xE0001000)CoreSight components:ROMTbl[0] @ E00FF000 -- CPU_ReadMem(16 bytes @ 0xE00FF000) -- CPU_ReadMem(16 bytes @ 0xE000EFF0) -- CPU_ReadMem(16 bytes @ 0xE000EFE0)ROMTbl[0][0]: E000E000, CID: B105E00D, PID: 000BB008 SCS -- CPU_ReadMem(16 bytes @ 0xE0001FF0) -- CPU_ReadMem(16 bytes @ 0xE0001FE0)
ROMTbl[0][1]: E0001000, CID: B105E00D, PID: 000BB00A DWT -- CPU_ReadMem(16 bytes @ 0xE0002FF0) -- CPU_ReadMem(16 bytes @ 0xE0002FE0)ROMTbl[0][2]: E0002000, CID: B105E00D, PID: 000BB00B FPB >0x0D TIF> >0x21 TIF>  returns 0x0BB11477 (0144ms, 0764ms total)
T06B8 1511:688 JLINK_GetDLLVersion()  returns 63209 (0000ms, 0765ms total)
T06B8 1511:688 JLINK_CORE_GetFound()  returns 0x60000FF (0000ms, 0765ms total)
T06B8 1511:688 JLINK_GetDebugInfo(0x100 = JLINKARM_ROM_TABLE_ADDR_INDEX) -- Value=0xE00FF000  returns 0x00 (0000ms, 0765ms total)
T06B8 1511:688 JLINK_GetDebugInfo(0x100 = JLINKARM_ROM_TABLE_ADDR_INDEX) -- Value=0xE00FF000  returns 0x00 (0000ms, 0765ms total)
T06B8 1511:688 JLINK_GetDebugInfo(0x101 = JLINKARM_DEBUG_INFO_ETM_ADDR_INDEX) -- Value=0x00000000  returns 0x00 (0000ms, 0765ms total)
T06B8 1511:688 JLINK_ReadMemEx(0xE0041FF0, 0x0010 Bytes, ..., Flags = 0x02000004) -- CPU_ReadMem(16 bytes @ 0xE0041FF0) - Data: 00 00 00 00 00 00 00 00 00 00 00 00 00 00 00 00  returns 0x10 (0000ms, 0765ms total)
T06B8 1511:688 JLINK_GetDebugInfo(0x102 = JLINKARM_DEBUG_INFO_MTB_ADDR_INDEX) -- Value=0x00000000  returns 0x00 (0000ms, 0765ms total)
T06B8 1511:688 JLINK_GetDebugInfo(0x103 = JLINKARM_DEBUG_INFO_TPIU_ADDR_INDEX) -- Value=0x00000000  returns 0x00 (0000ms, 0765ms total)
T06B8 1511:688 JLINK_ReadMemEx(0xE0040FF0, 0x0010 Bytes, ..., Flags = 0x02000004) -- CPU_ReadMem(16 bytes @ 0xE0040FF0) - Data: 00 00 00 00 00 00 00 00 00 00 00 00 00 00 00 00  returns 0x10 (0001ms, 0766ms total)
T06B8 1511:689 JLINK_GetDebugInfo(0x104 = JLINKARM_DEBUG_INFO_ITM_ADDR_INDEX) -- Value=0xE0000000  returns 0x00 (0000ms, 0766ms total)
T06B8 1511:689 JLINK_GetDebugInfo(0x105 = JLINKARM_DEBUG_INFO_DWT_ADDR_INDEX) -- Value=0xE0001000  returns 0x00 (0000ms, 0766ms total)
T06B8 1511:689 JLINK_GetDebugInfo(0x106 = JLINKARM_DEBUG_INFO_FPB_ADDR_INDEX) -- Value=0xE0002000  returns 0x00 (0000ms, 0766ms total)
T06B8 1511:689 JLINK_GetDebugInfo(0x107 = JLINKARM_DEBUG_INFO_NVIC_ADDR_INDEX) -- Value=0xE000E000  returns 0x00 (0000ms, 0766ms total)
T06B8 1511:689 JLINK_GetDebugInfo(0x10C = JLINKARM_DEBUG_INFO_DBG_ADDR_INDEX) -- Value=0xE000EDF0  returns 0x00 (0000ms, 0766ms total)
T06B8 1511:689 JLINK_GetDebugInfo(0x01 = Unknown) -- Value=0x00000000  returns 0x00 (0000ms, 0766ms total)
T06B8 1511:689 JLINK_ReadMemU32(0xE000ED00, 0x0001 Items, ...) -- CPU_ReadMem(4 bytes @ 0xE000ED00) - Data: 00 C2 0C 41  returns 0x01 (0000ms, 0766ms total)
T06B8 1511:689 JLINK_GetDebugInfo(0x10F = JLINKARM_DEBUG_INFO_HAS_CORTEX_M_SECURITY_EXT_INDEX) -- Value=0x00000000  returns 0x00 (0000ms, 0766ms total)
T06B8 1511:689 JLINK_SetResetType(JLINKARM_CM3_RESET_TYPE_NORMAL)  returns JLINKARM_CM3_RESET_TYPE_NORMAL (0000ms, 0766ms total)
T06B8 1511:689 JLINK_Reset() -- CPU is running -- CPU_WriteMem(4 bytes @ 0xE000EDF0) -- CPU is running -- CPU_WriteMem(4 bytes @ 0xE000EDFC)Reset: Halt core after reset via DEMCR.VC_CORERESET. >0x35 TIF>Reset: Reset device via AIRCR.SYSRESETREQ. -- CPU is running -- CPU_WriteMem(4 bytes @ 0xE000ED0C) >0x0D TIF> >0x28 TIF> -- CPU_ReadMem(4 bytes @ 0xE000EDF0) -- CPU_ReadMem(4 bytes @ 0xE000EDF0) -- CPU is running -- CPU_WriteMem(4 bytes @ 0xE000EDF0) -- CPU is running -- CPU_WriteMem(4 bytes @ 0xE000EDFC)
 -- CPU_ReadMem(4 bytes @ 0xE000EDF0) -- CPU_WriteMem(4 bytes @ 0xE0002000) -- CPU_ReadMem(4 bytes @ 0xE000EDFC) -- CPU_ReadMem(4 bytes @ 0xE0001000) -- CPU_WriteMem(4 bytes @ 0xE0001000) (0066ms, 0832ms total)
T06B8 1511:755 JLINK_ReadReg(R15 (PC))  returns 0x080000D4 (0000ms, 0832ms total)
T06B8 1511:755 JLINK_ReadReg(XPSR)  returns 0xC1000000 (0000ms, 0832ms total)
T06B8 1511:755 JLINK_Halt()  returns 0x00 (0000ms, 0832ms total)
T06B8 1511:755 JLINK_ReadMemU32(0xE000EDF0, 0x0001 Items, ...) -- CPU_ReadMem(4 bytes @ 0xE000EDF0) - Data: 03 00 03 00  returns 0x01 (0001ms, 0833ms total)
T06B8 1511:756 JLINK_WriteU32(0xE000EDF0, 0xA05F0003) -- CPU_WriteMem(4 bytes @ 0xE000EDF0)  returns 0x00 (0000ms, 0833ms total)
T06B8 1511:756 JLINK_WriteU32(0xE000EDFC, 0x01000000) -- CPU_WriteMem(4 bytes @ 0xE000EDFC)  returns 0x00 (0000ms, 0833ms total)
T06B8 1511:756 JLINK_GetHWStatus(...)  returns 0x00 (0001ms, 0834ms total)
T06B8 1511:757 JLINK_GetNumBPUnits(Type = 0xFFFFFF00)  returns 0x04 (0000ms, 0834ms total)
T06B8 1511:757 JLINK_GetNumBPUnits(Type = 0xF0)  returns 0x2000 (0000ms, 0834ms total)
T06B8 1511:757 JLINK_GetNumWPUnits()  returns 0x02 (0000ms, 0834ms total)
T06B8 1511:757 JLINK_GetSpeed()  returns 0x1770 (0000ms, 0834ms total)
T06B8 1511:757 JLINK_ReadMemU32(0xE000E004, 0x0001 Items, ...) -- CPU_ReadMem(4 bytes @ 0xE000E004) - Data: 00 00 00 00  returns 0x01 (0000ms, 0834ms total)
T06B8 1511:757 JLINK_ReadReg(R15 (PC))  returns 0x080000D4 (0000ms, 0834ms total)
T06B8 1511:757 JLINK_ReadReg(XPSR)  returns 0xC1000000 (0000ms, 0834ms total)
T06B8 1511:843 JLINK_SetResetType(JLINKARM_CM3_RESET_TYPE_NORMAL)  returns JLINKARM_CM3_RESET_TYPE_NORMAL (0000ms, 0834ms total)
T06B8 1511:843 JLINK_Reset() -- CPU_WriteMem(4 bytes @ 0xE000EDF0) -- CPU_WriteMem(4 bytes @ 0xE000EDFC)Reset: Halt core after reset via DEMCR.VC_CORERESET. >0x35 TIF>Reset: Reset device via AIRCR.SYSRESETREQ. -- CPU_WriteMem(4 bytes @ 0xE000ED0C) >0x0D TIF> >0x28 TIF> -- CPU_ReadMem(4 bytes @ 0xE000EDF0) -- CPU_ReadMem(4 bytes @ 0xE000EDF0) -- CPU_WriteMem(4 bytes @ 0xE000EDF0) -- CPU_WriteMem(4 bytes @ 0xE000EDFC) -- CPU_ReadMem(4 bytes @ 0xE000EDF0) -- CPU_WriteMem(4 bytes @ 0xE0002000)
 -- CPU_ReadMem(4 bytes @ 0xE000EDFC) -- CPU_ReadMem(4 bytes @ 0xE0001000) -- CPU_WriteMem(4 bytes @ 0xE0001000) (0067ms, 0901ms total)
T06B8 1511:910 JLINK_ReadReg(R15 (PC))  returns 0x080000D4 (0000ms, 0901ms total)
T06B8 1511:910 JLINK_ReadReg(XPSR)  returns 0xC1000000 (0000ms, 0901ms total)
T06B8 1512:100 JLINK_ReadMemEx(0x080000D4, 0x003C Bytes, ..., Flags = 0x02000000) -- CPU_ReadMem(128 bytes @ 0x080000C0) -- Updating C cache (128 bytes @ 0x080000C0) -- Read from C cache (60 bytes @ 0x080000D4) - Data: 04 48 80 47 04 48 00 47 FE E7 FE E7 FE E7 FE E7 ...  returns 0x3C (0001ms, 0902ms total)
T06B8 1512:143 JLINK_ReadMemEx(0x40013800, 0x0028 Bytes, ..., Flags = 0x02000004) -- CPU_ReadMem(40 bytes @ 0x40013800) - Data: 00 00 00 00 00 00 00 00 00 00 00 00 00 00 00 00 ...  returns 0x28 (0001ms, 0903ms total)
T06B8 1512:144 JLINK_ReadMemEx(0x40013828, 0x0004 Bytes, ..., Flags = 0x02000004) -- CPU_ReadMem(4 bytes @ 0x40013828) - Data: 00 00 00 00  returns 0x04 (0000ms, 0903ms total)
T0C78 1513:980 JLINK_ReadMemEx(0x080000D4, 0x0002 Bytes, ..., Flags = 0x02000000) -- Read from C cache (2 bytes @ 0x080000D4) - Data: 04 48  returns 0x02 (0000ms, 0903ms total)
T0C78 1513:980 JLINK_SetBPEx(Addr = 0x080027EC, Type = 0xFFFFFFF2)  returns 0x00000001 (0001ms, 0904ms total)
T0C78 1513:981 JLINK_Go() -- CPU_WriteMem(4 bytes @ 0xE0002000) -- CPU_ReadMem(4 bytes @ 0xE0001000) -- CPU_WriteMem(4 bytes @ 0xE0001000) -- CPU_WriteMem(4 bytes @ 0xE0002008) -- CPU_WriteMem(4 bytes @ 0xE000200C) -- CPU_WriteMem(4 bytes @ 0xE0002010) -- CPU_WriteMem(4 bytes @ 0xE0002014) -- CPU_WriteMem(4 bytes @ 0xE0001004) (0003ms, 0907ms total)
T0C78 1514:085 JLINK_IsHalted()  returns TRUE (0002ms, 0909ms total)
T0C78 1514:087 JLINK_Halt()  returns 0x00 (0000ms, 0907ms total)
T0C78 1514:087 JLINK_IsHalted()  returns TRUE (0000ms, 0907ms total)
T0C78 1514:087 JLINK_IsHalted()  returns TRUE (0000ms, 0907ms total)
T0C78 1514:087 JLINK_IsHalted()  returns TRUE (0000ms, 0907ms total)
T0C78 1514:087 JLINK_ReadReg(R15 (PC))  returns 0x080027EC (0000ms, 0907ms total)
T0C78 1514:087 JLINK_ReadReg(XPSR)  returns 0x61000000 (0000ms, 0907ms total)
T0C78 1514:087 JLINK_ClrBPEx(BPHandle = 0x00000001)  returns 0x00 (0000ms, 0907ms total)
T0C78 1514:087 JLINK_ReadMemU32(0xE000ED30, 0x0001 Items, ...) -- CPU_ReadMem(4 bytes @ 0xE000ED30) - Data: 02 00 00 00  returns 0x01 (0000ms, 0907ms total)
T0C78 1514:087 JLINK_ReadMemU32(0xE0001028, 0x0001 Items, ...) -- CPU_ReadMem(4 bytes @ 0xE0001028) - Data: 00 00 00 00  returns 0x01 (0001ms, 0908ms total)
T0C78 1514:088 JLINK_ReadMemU32(0xE0001038, 0x0001 Items, ...) -- CPU_ReadMem(4 bytes @ 0xE0001038) - Data: 00 00 00 00  returns 0x01 (0000ms, 0908ms total)
T0C78 1514:088 JLINK_ReadReg(R0)  returns 0x080027ED (0000ms, 0908ms total)
T0C78 1514:088 JLINK_ReadReg(R1)  returns 0x20001288 (0000ms, 0908ms total)
T0C78 1514:088 JLINK_ReadReg(R2)  returns 0x00000000 (0001ms, 0909ms total)
T0C78 1514:089 JLINK_ReadReg(R3)  returns 0x080027DD (0000ms, 0909ms total)
T0C78 1514:089 JLINK_ReadReg(R4)  returns 0x08002928 (0000ms, 0909ms total)
T0C78 1514:089 JLINK_ReadReg(R5)  returns 0x00000001 (0000ms, 0909ms total)
T0C78 1514:089 JLINK_ReadReg(R6)  returns 0x08002928 (0000ms, 0909ms total)
T0C78 1514:089 JLINK_ReadReg(R7)  returns 0xFFFFFFFF (0000ms, 0909ms total)
T0C78 1514:089 JLINK_ReadReg(R8)  returns 0xFFFFFFFF (0000ms, 0909ms total)
T0C78 1514:089 JLINK_ReadReg(R9)  returns 0xFFFFFFFF (0000ms, 0909ms total)
T0C78 1514:089 JLINK_ReadReg(R10)  returns 0xFFFFFFFF (0000ms, 0909ms total)
T0C78 1514:089 JLINK_ReadReg(R11)  returns 0xFFFFFFFF (0000ms, 0909ms total)
T0C78 1514:089 JLINK_ReadReg(R12)  returns 0xFFFFFFFF (0000ms, 0909ms total)
T0C78 1514:089 JLINK_ReadReg(R13 (SP))  returns 0x20001288 (0000ms, 0909ms total)
T0C78 1514:089 JLINK_ReadReg(R14)  returns 0x08000225 (0000ms, 0909ms total)
T0C78 1514:089 JLINK_ReadReg(R15 (PC))  returns 0x080027EC (0000ms, 0909ms total)
T0C78 1514:089 JLINK_ReadReg(XPSR)  returns 0x61000000 (0000ms, 0909ms total)
T0C78 1514:089 JLINK_ReadReg(MSP)  returns 0x20001288 (0000ms, 0909ms total)
T0C78 1514:089 JLINK_ReadReg(PSP)  returns 0xFFFFFFFC (0000ms, 0909ms total)
T0C78 1514:089 JLINK_ReadReg(CFBP)  returns 0x00000000 (0000ms, 0909ms total)
T06B8 1514:090 JLINK_ReadMemEx(0x00000000, 0x0001 Bytes, ..., Flags = 0x02000000) -- CPU_ReadMem(4 bytes @ 0x00000004) -- CPU_ReadMem(64 bytes @ 0x08000000) -- Updating C cache (64 bytes @ 0x08000000) -- Read from C cache (1 bytes @ 0x08000000) - Data: 88  returns 0x01 (0002ms, 0911ms total)
T06B8 1514:092 JLINK_ReadMemEx(0x00000000, 0x0004 Bytes, ..., Flags = 0x02000000) -- Read from C cache (4 bytes @ 0x08000000) - Data: 88 12 00 20  returns 0x04 (0000ms, 0911ms total)
T06B8 1514:103 JLINK_ReadMemEx(0x40013800, 0x0028 Bytes, ..., Flags = 0x02000004) -- CPU_ReadMem(40 bytes @ 0x40013800) - Data: 00 00 00 00 00 00 00 00 00 00 00 00 00 00 00 00 ...  returns 0x28 (0001ms, 0912ms total)
T06B8 1514:104 JLINK_ReadMemEx(0x40013828, 0x0004 Bytes, ..., Flags = 0x02000004) -- CPU_ReadMem(4 bytes @ 0x40013828) - Data: 00 00 00 00  returns 0x04 (0000ms, 0912ms total)
T0C78 1515:659 JLINK_ReadMemEx(0x080027EC, 0x0014 Bytes, ..., Flags = 0x02000000) -- CPU_ReadMem(64 bytes @ 0x080027C0) -- Updating C cache (64 bytes @ 0x080027C0) -- Read from C cache (20 bytes @ 0x080027EC) - Data: FE F7 78 FB FF F7 B8 FC FF F7 14 FC 29 48 FF F7 ...  returns 0x14 (0001ms, 0913ms total)
T0C78 1515:660 JLINK_ReadMemEx(0x08002800, 0x0028 Bytes, ..., Flags = 0x02000000) -- CPU_ReadMem(64 bytes @ 0x08002800) -- Updating C cache (64 bytes @ 0x08002800) -- Read from C cache (40 bytes @ 0x08002800) - Data: 01 20 FF F7 73 FC 27 4E 30 46 FF F7 2B FC 24 4C ...  returns 0x28 (0001ms, 0914ms total)
T0C78 1515:661 JLINK_ReadMemEx(0x080027EC, 0x0002 Bytes, ..., Flags = 0x02000000) -- Read from C cache (2 bytes @ 0x080027EC) - Data: FE F7  returns 0x02 (0000ms, 0914ms total)
T0C78 1515:661 JLINK_SetBPEx(Addr = 0x080027F0, Type = 0xFFFFFFF2)  returns 0x00000002 (0000ms, 0914ms total)
T0C78 1515:661 JLINK_Go() -- CPU_WriteMem(4 bytes @ 0xE0002000) -- CPU_ReadMem(4 bytes @ 0xE0001000) -- CPU_WriteMem(4 bytes @ 0xE0001000) -- CPU_WriteMem(4 bytes @ 0xE0002008) (0002ms, 0916ms total)
T0C78 1515:765 JLINK_IsHalted()  returns TRUE (0003ms, 0919ms total)
T0C78 1515:768 JLINK_Halt()  returns 0x00 (0000ms, 0916ms total)
T0C78 1515:768 JLINK_IsHalted()  returns TRUE (0001ms, 0917ms total)
T0C78 1515:769 JLINK_IsHalted()  returns TRUE (0000ms, 0916ms total)
T0C78 1515:769 JLINK_IsHalted()  returns TRUE (0000ms, 0916ms total)
T0C78 1515:769 JLINK_ReadReg(R15 (PC))  returns 0x080027F0 (0000ms, 0916ms total)
T0C78 1515:769 JLINK_ReadReg(XPSR)  returns 0x41000000 (0000ms, 0916ms total)
T0C78 1515:769 JLINK_ClrBPEx(BPHandle = 0x00000002)  returns 0x00 (0000ms, 0916ms total)
T0C78 1515:769 JLINK_ReadMemU32(0xE000ED30, 0x0001 Items, ...) -- CPU_ReadMem(4 bytes @ 0xE000ED30) - Data: 02 00 00 00  returns 0x01 (0001ms, 0917ms total)
T0C78 1515:770 JLINK_ReadMemU32(0xE0001028, 0x0001 Items, ...) -- CPU_ReadMem(4 bytes @ 0xE0001028) - Data: 00 00 00 00  returns 0x01 (0001ms, 0918ms total)
T0C78 1515:771 JLINK_ReadMemU32(0xE0001038, 0x0001 Items, ...) -- CPU_ReadMem(4 bytes @ 0xE0001038) - Data: 00 00 00 00  returns 0x01 (0001ms, 0919ms total)
T0C78 1515:773 JLINK_ReadReg(R0)  returns 0x00000000 (0000ms, 0919ms total)
T0C78 1515:773 JLINK_ReadReg(R1)  returns 0x10000000 (0000ms, 0919ms total)
T0C78 1515:773 JLINK_ReadReg(R2)  returns 0x10000000 (0000ms, 0919ms total)
T0C78 1515:773 JLINK_ReadReg(R3)  returns 0x10000000 (0000ms, 0919ms total)
T0C78 1515:773 JLINK_ReadReg(R4)  returns 0x08002928 (0000ms, 0919ms total)
T0C78 1515:773 JLINK_ReadReg(R5)  returns 0x00000001 (0000ms, 0919ms total)
T0C78 1515:773 JLINK_ReadReg(R6)  returns 0x08002928 (0000ms, 0919ms total)
T0C78 1515:773 JLINK_ReadReg(R7)  returns 0xFFFFFFFF (0000ms, 0919ms total)
T0C78 1515:773 JLINK_ReadReg(R8)  returns 0xFFFFFFFF (0001ms, 0920ms total)
T0C78 1515:774 JLINK_ReadReg(R9)  returns 0xFFFFFFFF (0000ms, 0920ms total)
T0C78 1515:774 JLINK_ReadReg(R10)  returns 0xFFFFFFFF (0000ms, 0920ms total)
T0C78 1515:774 JLINK_ReadReg(R11)  returns 0xFFFFFFFF (0000ms, 0920ms total)
T0C78 1515:774 JLINK_ReadReg(R12)  returns 0xFFFFFFFF (0000ms, 0920ms total)
T0C78 1515:774 JLINK_ReadReg(R13 (SP))  returns 0x20001288 (0000ms, 0920ms total)
T0C78 1515:774 JLINK_ReadReg(R14)  returns 0x08000EF7 (0000ms, 0920ms total)
T0C78 1515:774 JLINK_ReadReg(R15 (PC))  returns 0x080027F0 (0000ms, 0920ms total)
T0C78 1515:774 JLINK_ReadReg(XPSR)  returns 0x41000000 (0000ms, 0920ms total)
T0C78 1515:774 JLINK_ReadReg(MSP)  returns 0x20001288 (0000ms, 0920ms total)
T0C78 1515:774 JLINK_ReadReg(PSP)  returns 0xFFFFFFFC (0000ms, 0920ms total)
T0C78 1515:775 JLINK_ReadReg(CFBP)  returns 0x00000000 (0000ms, 0921ms total)
T06B8 1515:775 JLINK_ReadMemEx(0x00000000, 0x0001 Bytes, ..., Flags = 0x02000000) -- CPU_ReadMem(4 bytes @ 0x00000004) -- CPU_ReadMem(64 bytes @ 0x08000000) -- Updating C cache (64 bytes @ 0x08000000) -- Read from C cache (1 bytes @ 0x08000000) - Data: 88  returns 0x01 (0002ms, 0923ms total)
T06B8 1515:777 JLINK_ReadMemEx(0x00000000, 0x0004 Bytes, ..., Flags = 0x02000000) -- Read from C cache (4 bytes @ 0x08000000) - Data: 88 12 00 20  returns 0x04 (0001ms, 0924ms total)
T06B8 1515:782 JLINK_ReadMemEx(0x40013800, 0x0028 Bytes, ..., Flags = 0x02000004) -- CPU_ReadMem(40 bytes @ 0x40013800) - Data: 00 00 00 00 00 00 00 00 00 00 00 00 00 00 00 00 ...  returns 0x28 (0001ms, 0925ms total)
T06B8 1515:783 JLINK_ReadMemEx(0x40013828, 0x0004 Bytes, ..., Flags = 0x02000004) -- CPU_ReadMem(4 bytes @ 0x40013828) - Data: 00 00 00 00  returns 0x04 (0001ms, 0926ms total)
T0C78 1516:403 JLINK_ReadMemEx(0x080027F0, 0x0010 Bytes, ..., Flags = 0x02000000) -- CPU_ReadMem(64 bytes @ 0x080027C0) -- Updating C cache (64 bytes @ 0x080027C0) -- Read from C cache (16 bytes @ 0x080027F0) - Data: FF F7 B8 FC FF F7 14 FC 29 48 FF F7 1F FC 00 21  returns 0x10 (0001ms, 0927ms total)
T0C78 1516:404 JLINK_ReadMemEx(0x08002800, 0x002C Bytes, ..., Flags = 0x02000000) -- CPU_ReadMem(64 bytes @ 0x08002800) -- Updating C cache (64 bytes @ 0x08002800) -- Read from C cache (44 bytes @ 0x08002800) - Data: 01 20 FF F7 73 FC 27 4E 30 46 FF F7 2B FC 24 4C ...  returns 0x2C (0001ms, 0928ms total)
T0C78 1516:405 JLINK_ReadMemEx(0x080027F0, 0x0002 Bytes, ..., Flags = 0x02000000) -- Read from C cache (2 bytes @ 0x080027F0) - Data: FF F7  returns 0x02 (0000ms, 0928ms total)
T0C78 1516:405 JLINK_SetBPEx(Addr = 0x080027F4, Type = 0xFFFFFFF2)  returns 0x00000003 (0000ms, 0928ms total)
T0C78 1516:405 JLINK_Go() -- CPU_WriteMem(4 bytes @ 0xE0002000) -- CPU_ReadMem(4 bytes @ 0xE0001000) -- CPU_WriteMem(4 bytes @ 0xE0001000) -- CPU_WriteMem(4 bytes @ 0xE0002008) (0002ms, 0930ms total)
T0C78 1516:508 JLINK_IsHalted()  returns TRUE (0003ms, 0933ms total)
T0C78 1516:512 JLINK_Halt()  returns 0x00 (0000ms, 0930ms total)
T0C78 1516:512 JLINK_IsHalted()  returns TRUE (0000ms, 0930ms total)
T0C78 1516:512 JLINK_IsHalted()  returns TRUE (0000ms, 0930ms total)
T0C78 1516:512 JLINK_IsHalted()  returns TRUE (0000ms, 0930ms total)
T0C78 1516:512 JLINK_ReadReg(R15 (PC))  returns 0x080027F4 (0000ms, 0930ms total)
T0C78 1516:512 JLINK_ReadReg(XPSR)  returns 0x61000000 (0000ms, 0930ms total)
T0C78 1516:512 JLINK_ClrBPEx(BPHandle = 0x00000003)  returns 0x00 (0001ms, 0931ms total)
T0C78 1516:513 JLINK_ReadMemU32(0xE000ED30, 0x0001 Items, ...) -- CPU_ReadMem(4 bytes @ 0xE000ED30) - Data: 02 00 00 00  returns 0x01 (0001ms, 0932ms total)
T0C78 1516:514 JLINK_ReadMemU32(0xE0001028, 0x0001 Items, ...) -- CPU_ReadMem(4 bytes @ 0xE0001028) - Data: 00 00 00 00  returns 0x01 (0001ms, 0933ms total)
T0C78 1516:515 JLINK_ReadMemU32(0xE0001038, 0x0001 Items, ...) -- CPU_ReadMem(4 bytes @ 0xE0001038) - Data: 00 00 00 00  returns 0x01 (0001ms, 0934ms total)
T0C78 1516:516 JLINK_ReadReg(R0)  returns 0x00000000 (0000ms, 0934ms total)
T0C78 1516:516 JLINK_ReadReg(R1)  returns 0x00000000 (0000ms, 0934ms total)
T0C78 1516:516 JLINK_ReadReg(R2)  returns 0xFF000000 (0000ms, 0934ms total)
T0C78 1516:516 JLINK_ReadReg(R3)  returns 0x10000000 (0000ms, 0934ms total)
T0C78 1516:516 JLINK_ReadReg(R4)  returns 0x08002928 (0000ms, 0934ms total)
T0C78 1516:516 JLINK_ReadReg(R5)  returns 0x00000001 (0001ms, 0935ms total)
T0C78 1516:517 JLINK_ReadReg(R6)  returns 0x08002928 (0000ms, 0935ms total)
T0C78 1516:517 JLINK_ReadReg(R7)  returns 0xFFFFFFFF (0000ms, 0935ms total)
T0C78 1516:517 JLINK_ReadReg(R8)  returns 0xFFFFFFFF (0000ms, 0935ms total)
T0C78 1516:517 JLINK_ReadReg(R9)  returns 0xFFFFFFFF (0000ms, 0935ms total)
T0C78 1516:517 JLINK_ReadReg(R10)  returns 0xFFFFFFFF (0000ms, 0935ms total)
T0C78 1516:517 JLINK_ReadReg(R11)  returns 0xFFFFFFFF (0000ms, 0935ms total)
T0C78 1516:517 JLINK_ReadReg(R12)  returns 0xFFFFFFFF (0000ms, 0935ms total)
T0C78 1516:517 JLINK_ReadReg(R13 (SP))  returns 0x20001288 (0000ms, 0935ms total)
T0C78 1516:517 JLINK_ReadReg(R14)  returns 0x08000FAF (0000ms, 0935ms total)
T0C78 1516:517 JLINK_ReadReg(R15 (PC))  returns 0x080027F4 (0001ms, 0936ms total)
T0C78 1516:518 JLINK_ReadReg(XPSR)  returns 0x61000000 (0000ms, 0936ms total)
T0C78 1516:518 JLINK_ReadReg(MSP)  returns 0x20001288 (0000ms, 0936ms total)
T0C78 1516:518 JLINK_ReadReg(PSP)  returns 0xFFFFFFFC (0000ms, 0936ms total)
T0C78 1516:518 JLINK_ReadReg(CFBP)  returns 0x00000000 (0000ms, 0936ms total)
T06B8 1516:518 JLINK_ReadMemEx(0x00000000, 0x0001 Bytes, ..., Flags = 0x02000000) -- CPU_ReadMem(4 bytes @ 0x00000004) -- CPU_ReadMem(64 bytes @ 0x08000000) -- Updating C cache (64 bytes @ 0x08000000) -- Read from C cache (1 bytes @ 0x08000000) - Data: 88  returns 0x01 (0006ms, 0942ms total)
T06B8 1516:524 JLINK_ReadMemEx(0x00000000, 0x0004 Bytes, ..., Flags = 0x02000000) -- Read from C cache (4 bytes @ 0x08000000) - Data: 88 12 00 20  returns 0x04 (0000ms, 0942ms total)
T06B8 1516:526 JLINK_ReadMemEx(0x40013800, 0x0028 Bytes, ..., Flags = 0x02000004) -- CPU_ReadMem(40 bytes @ 0x40013800) - Data: 00 00 00 00 00 00 00 00 00 00 00 00 00 00 00 00 ...  returns 0x28 (0001ms, 0943ms total)
T06B8 1516:527 JLINK_ReadMemEx(0x40013828, 0x0004 Bytes, ..., Flags = 0x02000004) -- CPU_ReadMem(4 bytes @ 0x40013828) - Data: 00 00 00 00  returns 0x04 (0001ms, 0944ms total)
T06B8 1516:533 JLINK_ReadMemEx(0x080027F4, 0x000C Bytes, ..., Flags = 0x02000000) -- CPU_ReadMem(64 bytes @ 0x080027C0) -- Updating C cache (64 bytes @ 0x080027C0) -- Read from C cache (12 bytes @ 0x080027F4) - Data: FF F7 14 FC 29 48 FF F7 1F FC 00 21  returns 0x0C (0002ms, 0946ms total)
T06B8 1516:535 JLINK_ReadMemEx(0x08002800, 0x0030 Bytes, ..., Flags = 0x02000000) -- CPU_ReadMem(64 bytes @ 0x08002800) -- Updating C cache (64 bytes @ 0x08002800) -- Read from C cache (48 bytes @ 0x08002800) - Data: 01 20 FF F7 73 FC 27 4E 30 46 FF F7 2B FC 24 4C ...  returns 0x30 (0001ms, 0947ms total)
T0C78 1517:102 JLINK_ReadMemEx(0x080027F4, 0x0002 Bytes, ..., Flags = 0x02000000) -- Read from C cache (2 bytes @ 0x080027F4) - Data: FF F7  returns 0x02 (0000ms, 0947ms total)
T0C78 1517:102 JLINK_SetBPEx(Addr = 0x080027F8, Type = 0xFFFFFFF2)  returns 0x00000004 (0000ms, 0947ms total)
T0C78 1517:102 JLINK_Go() -- CPU_WriteMem(4 bytes @ 0xE0002000) -- CPU_ReadMem(4 bytes @ 0xE0001000) -- CPU_WriteMem(4 bytes @ 0xE0001000) -- CPU_WriteMem(4 bytes @ 0xE0002008) (0004ms, 0951ms total)
T0C78 1517:208 JLINK_IsHalted()  returns TRUE (0003ms, 0954ms total)
T0C78 1517:212 JLINK_Halt()  returns 0x00 (0000ms, 0951ms total)
T0C78 1517:212 JLINK_IsHalted()  returns TRUE (0000ms, 0951ms total)
T0C78 1517:212 JLINK_IsHalted()  returns TRUE (0000ms, 0951ms total)
T0C78 1517:212 JLINK_IsHalted()  returns TRUE (0000ms, 0951ms total)
T0C78 1517:212 JLINK_ReadReg(R15 (PC))  returns 0x080027F8 (0000ms, 0951ms total)
T0C78 1517:212 JLINK_ReadReg(XPSR)  returns 0x01000000 (0000ms, 0951ms total)
T0C78 1517:212 JLINK_ClrBPEx(BPHandle = 0x00000004)  returns 0x00 (0000ms, 0951ms total)
T0C78 1517:212 JLINK_ReadMemU32(0xE000ED30, 0x0001 Items, ...) -- CPU_ReadMem(4 bytes @ 0xE000ED30) - Data: 02 00 00 00  returns 0x01 (0001ms, 0952ms total)
T0C78 1517:214 JLINK_ReadMemU32(0xE0001028, 0x0001 Items, ...) -- CPU_ReadMem(4 bytes @ 0xE0001028) - Data: 00 00 00 00  returns 0x01 (0001ms, 0953ms total)
T0C78 1517:215 JLINK_ReadMemU32(0xE0001038, 0x0001 Items, ...) -- CPU_ReadMem(4 bytes @ 0xE0001038) - Data: 00 00 00 00  returns 0x01 (0001ms, 0954ms total)
T0C78 1517:216 JLINK_ReadReg(R0)  returns 0x00020000 (0000ms, 0954ms total)
T0C78 1517:216 JLINK_ReadReg(R1)  returns 0x00020000 (0000ms, 0954ms total)
T0C78 1517:216 JLINK_ReadReg(R2)  returns 0x00020014 (0000ms, 0954ms total)
T0C78 1517:216 JLINK_ReadReg(R3)  returns 0x00020000 (0000ms, 0954ms total)
T0C78 1517:216 JLINK_ReadReg(R4)  returns 0x08002928 (0000ms, 0954ms total)
T0C78 1517:216 JLINK_ReadReg(R5)  returns 0x00000001 (0001ms, 0955ms total)
T0C78 1517:217 JLINK_ReadReg(R6)  returns 0x08002928 (0000ms, 0955ms total)
T0C78 1517:217 JLINK_ReadReg(R7)  returns 0xFFFFFFFF (0000ms, 0955ms total)
T0C78 1517:217 JLINK_ReadReg(R8)  returns 0xFFFFFFFF (0000ms, 0955ms total)
T0C78 1517:217 JLINK_ReadReg(R9)  returns 0xFFFFFFFF (0000ms, 0955ms total)
T0C78 1517:217 JLINK_ReadReg(R10)  returns 0xFFFFFFFF (0000ms, 0955ms total)
T0C78 1517:217 JLINK_ReadReg(R11)  returns 0xFFFFFFFF (0000ms, 0955ms total)
T0C78 1517:217 JLINK_ReadReg(R12)  returns 0xFFFFFFFF (0000ms, 0955ms total)
T0C78 1517:217 JLINK_ReadReg(R13 (SP))  returns 0x20001288 (0000ms, 0955ms total)
T0C78 1517:217 JLINK_ReadReg(R14)  returns 0x080027F9 (0000ms, 0955ms total)
T0C78 1517:217 JLINK_ReadReg(R15 (PC))  returns 0x080027F8 (0000ms, 0955ms total)
T0C78 1517:218 JLINK_ReadReg(XPSR)  returns 0x01000000 (0000ms, 0956ms total)
T0C78 1517:218 JLINK_ReadReg(MSP)  returns 0x20001288 (0000ms, 0956ms total)
T0C78 1517:218 JLINK_ReadReg(PSP)  returns 0xFFFFFFFC (0000ms, 0956ms total)
T0C78 1517:218 JLINK_ReadReg(CFBP)  returns 0x00000000 (0000ms, 0956ms total)
T06B8 1517:218 JLINK_ReadMemEx(0x00000000, 0x0001 Bytes, ..., Flags = 0x02000000) -- CPU_ReadMem(4 bytes @ 0x00000004) -- CPU_ReadMem(64 bytes @ 0x08000000) -- Updating C cache (64 bytes @ 0x08000000) -- Read from C cache (1 bytes @ 0x08000000) - Data: 88  returns 0x01 (0002ms, 0958ms total)
T06B8 1517:220 JLINK_ReadMemEx(0x00000000, 0x0004 Bytes, ..., Flags = 0x02000000) -- Read from C cache (4 bytes @ 0x08000000) - Data: 88 12 00 20  returns 0x04 (0001ms, 0959ms total)
T06B8 1517:223 JLINK_ReadMemEx(0x40013800, 0x0028 Bytes, ..., Flags = 0x02000004) -- CPU_ReadMem(40 bytes @ 0x40013800) - Data: 00 00 00 00 00 00 00 00 00 00 00 00 00 00 00 00 ...  returns 0x28 (0002ms, 0961ms total)
T06B8 1517:225 JLINK_ReadMemEx(0x40013828, 0x0004 Bytes, ..., Flags = 0x02000004) -- CPU_ReadMem(4 bytes @ 0x40013828) - Data: 00 00 00 00  returns 0x04 (0001ms, 0962ms total)
T06B8 1517:241 JLINK_ReadMemEx(0x080027F8, 0x0008 Bytes, ..., Flags = 0x02000000) -- CPU_ReadMem(64 bytes @ 0x080027C0) -- Updating C cache (64 bytes @ 0x080027C0) -- Read from C cache (8 bytes @ 0x080027F8) - Data: 29 48 FF F7 1F FC 00 21  returns 0x08 (0002ms, 0964ms total)
T06B8 1517:243 JLINK_ReadMemEx(0x08002800, 0x0034 Bytes, ..., Flags = 0x02000000) -- CPU_ReadMem(64 bytes @ 0x08002800) -- Updating C cache (64 bytes @ 0x08002800) -- Read from C cache (52 bytes @ 0x08002800) - Data: 01 20 FF F7 73 FC 27 4E 30 46 FF F7 2B FC 24 4C ...  returns 0x34 (0001ms, 0965ms total)
T0C78 1520:461 JLINK_ReadMemEx(0x080027F8, 0x0002 Bytes, ..., Flags = 0x02000000) -- Read from C cache (2 bytes @ 0x080027F8) - Data: 29 48  returns 0x02 (0000ms, 0965ms total)
T0C78 1520:461 JLINK_Step() -- Read from C cache (2 bytes @ 0x080027F8) -- CPU_ReadMem(4 bytes @ 0xE000ED18) -- CPU_WriteMem(4 bytes @ 0xE000ED18) -- CPU_ReadMem(4 bytes @ 0xE000ED18) -- CPU_WriteMem(4 bytes @ 0xE000ED18) -- CPU_ReadMem(4 bytes @ 0xE0001004) -- CPU_ReadMem(64 bytes @ 0x08002880) -- Updating C cache (64 bytes @ 0x08002880) -- Read from C cache (4 bytes @ 0x080028A0) -- Simulated  returns 0x00 (0005ms, 0970ms total)
T0C78 1520:467 JLINK_ReadReg(R15 (PC))  returns 0x080027FA (0000ms, 0971ms total)
T0C78 1520:467 JLINK_ReadReg(XPSR)  returns 0x01000000 (0000ms, 0971ms total)
T0C78 1520:467 JLINK_SetBPEx(Addr = 0x080027FE, Type = 0xFFFFFFF2)  returns 0x00000005 (0000ms, 0971ms total)
T0C78 1520:467 JLINK_Go() -- CPU_WriteMem(4 bytes @ 0xE0002000) -- CPU_ReadMem(4 bytes @ 0xE0001000) -- CPU_WriteMem(4 bytes @ 0xE0001000) -- CPU_WriteMem(4 bytes @ 0xE0002008) -- CPU_WriteMem(4 bytes @ 0xE0001004) (0004ms, 0975ms total)
T0C78 1520:572 JLINK_IsHalted()  returns TRUE (0003ms, 0978ms total)
T0C78 1520:576 JLINK_Halt()  returns 0x00 (0000ms, 0975ms total)
T0C78 1520:576 JLINK_IsHalted()  returns TRUE (0001ms, 0976ms total)
T0C78 1520:577 JLINK_IsHalted()  returns TRUE (0000ms, 0975ms total)
T0C78 1520:577 JLINK_IsHalted()  returns TRUE (0000ms, 0975ms total)
T0C78 1520:577 JLINK_ReadReg(R15 (PC))  returns 0x080027FE (0000ms, 0975ms total)
T0C78 1520:577 JLINK_ReadReg(XPSR)  returns 0x01000000 (0000ms, 0975ms total)
T0C78 1520:577 JLINK_ClrBPEx(BPHandle = 0x00000005)  returns 0x00 (0000ms, 0975ms total)
T0C78 1520:577 JLINK_ReadMemU32(0xE000ED30, 0x0001 Items, ...) -- CPU_ReadMem(4 bytes @ 0xE000ED30) - Data: 02 00 00 00  returns 0x01 (0002ms, 0977ms total)
T0C78 1520:579 JLINK_ReadMemU32(0xE0001028, 0x0001 Items, ...) -- CPU_ReadMem(4 bytes @ 0xE0001028) - Data: 00 00 00 00  returns 0x01 (0001ms, 0978ms total)
T0C78 1520:580 JLINK_ReadMemU32(0xE0001038, 0x0001 Items, ...) -- CPU_ReadMem(4 bytes @ 0xE0001038) - Data: 00 00 00 00  returns 0x01 (0001ms, 0979ms total)
T0C78 1520:581 JLINK_ReadReg(R0)  returns 0x20000034 (0000ms, 0979ms total)
T0C78 1520:581 JLINK_ReadReg(R1)  returns 0x0801E000 (0000ms, 0979ms total)
T0C78 1520:581 JLINK_ReadReg(R2)  returns 0x00020014 (0000ms, 0979ms total)
T0C78 1520:581 JLINK_ReadReg(R3)  returns 0x00020000 (0000ms, 0979ms total)
T0C78 1520:581 JLINK_ReadReg(R4)  returns 0x08002928 (0001ms, 0980ms total)
T0C78 1520:582 JLINK_ReadReg(R5)  returns 0x00000001 (0000ms, 0980ms total)
T0C78 1520:582 JLINK_ReadReg(R6)  returns 0x08002928 (0000ms, 0980ms total)
T0C78 1520:582 JLINK_ReadReg(R7)  returns 0xFFFFFFFF (0000ms, 0980ms total)
T0C78 1520:582 JLINK_ReadReg(R8)  returns 0xFFFFFFFF (0000ms, 0980ms total)
T0C78 1520:582 JLINK_ReadReg(R9)  returns 0xFFFFFFFF (0000ms, 0980ms total)
T0C78 1520:582 JLINK_ReadReg(R10)  returns 0xFFFFFFFF (0000ms, 0980ms total)
T0C78 1520:582 JLINK_ReadReg(R11)  returns 0xFFFFFFFF (0000ms, 0980ms total)
T0C78 1520:582 JLINK_ReadReg(R12)  returns 0xFFFFFFFF (0000ms, 0980ms total)
T0C78 1520:582 JLINK_ReadReg(R13 (SP))  returns 0x20001288 (0000ms, 0980ms total)
T0C78 1520:582 JLINK_ReadReg(R14)  returns 0x0800206B (0001ms, 0981ms total)
T0C78 1520:583 JLINK_ReadReg(R15 (PC))  returns 0x080027FE (0000ms, 0981ms total)
T0C78 1520:583 JLINK_ReadReg(XPSR)  returns 0x01000000 (0000ms, 0981ms total)
T0C78 1520:583 JLINK_ReadReg(MSP)  returns 0x20001288 (0000ms, 0981ms total)
T0C78 1520:583 JLINK_ReadReg(PSP)  returns 0xFFFFFFFC (0000ms, 0981ms total)
T0C78 1520:583 JLINK_ReadReg(CFBP)  returns 0x00000000 (0000ms, 0981ms total)
T06B8 1520:583 JLINK_ReadMemEx(0x00000000, 0x0001 Bytes, ..., Flags = 0x02000000) -- CPU_ReadMem(4 bytes @ 0x00000004) -- CPU_ReadMem(64 bytes @ 0x08000000) -- Updating C cache (64 bytes @ 0x08000000) -- Read from C cache (1 bytes @ 0x08000000) - Data: 88  returns 0x01 (0003ms, 0984ms total)
T06B8 1520:586 JLINK_ReadMemEx(0x00000000, 0x0004 Bytes, ..., Flags = 0x02000000) -- Read from C cache (4 bytes @ 0x08000000) - Data: 88 12 00 20  returns 0x04 (0000ms, 0984ms total)
T06B8 1520:589 JLINK_ReadMemEx(0x40013800, 0x0028 Bytes, ..., Flags = 0x02000004) -- CPU_ReadMem(40 bytes @ 0x40013800) - Data: 00 00 00 00 00 00 00 00 00 00 00 00 00 00 00 00 ...  returns 0x28 (0001ms, 0985ms total)
T06B8 1520:590 JLINK_ReadMemEx(0x40013828, 0x0004 Bytes, ..., Flags = 0x02000004) -- CPU_ReadMem(4 bytes @ 0x40013828) - Data: 00 00 00 00  returns 0x04 (0001ms, 0986ms total)
T06B8 1520:605 JLINK_ReadMemEx(0x080027FE, 0x0002 Bytes, ..., Flags = 0x02000000) -- CPU_ReadMem(64 bytes @ 0x080027C0) -- Updating C cache (64 bytes @ 0x080027C0) -- Read from C cache (2 bytes @ 0x080027FE) - Data: 00 21  returns 0x02 (0001ms, 0987ms total)
T06B8 1520:606 JLINK_ReadMemEx(0x08002800, 0x003C Bytes, ..., Flags = 0x02000000) -- CPU_ReadMem(64 bytes @ 0x08002800) -- Updating C cache (64 bytes @ 0x08002800) -- Read from C cache (60 bytes @ 0x08002800) - Data: 01 20 FF F7 73 FC 27 4E 30 46 FF F7 2B FC 24 4C ...  returns 0x3C (0002ms, 0989ms total)
T0C78 1533:921 JLINK_ReadMemEx(0x080027FE, 0x0002 Bytes, ..., Flags = 0x02000000) -- Read from C cache (2 bytes @ 0x080027FE) - Data: 00 21  returns 0x02 (0000ms, 0989ms total)
T0C78 1533:921 JLINK_Step() -- Read from C cache (2 bytes @ 0x080027FE) -- CPU_ReadMem(4 bytes @ 0xE0001004) -- Simulated  returns 0x00 (0001ms, 0990ms total)
T0C78 1533:922 JLINK_ReadReg(R15 (PC))  returns 0x08002800 (0000ms, 0990ms total)
T0C78 1533:922 JLINK_ReadReg(XPSR)  returns 0x41000000 (0001ms, 0991ms total)
T0C78 1533:923 JLINK_Step() -- Read from C cache (2 bytes @ 0x08002800) -- Simulated  returns 0x00 (0000ms, 0991ms total)
T0C78 1533:923 JLINK_ReadReg(R15 (PC))  returns 0x08002802 (0000ms, 0991ms total)
T0C78 1533:923 JLINK_ReadReg(XPSR)  returns 0x01000000 (0000ms, 0991ms total)
T0C78 1533:923 JLINK_SetBPEx(Addr = 0x08002806, Type = 0xFFFFFFF2)  returns 0x00000006 (0000ms, 0991ms total)
T0C78 1533:923 JLINK_Go() -- CPU_WriteMem(4 bytes @ 0xE0002000) -- CPU_ReadMem(4 bytes @ 0xE0001000) -- CPU_WriteMem(4 bytes @ 0xE0001000) -- CPU_WriteMem(4 bytes @ 0xE0002008) -- CPU_WriteMem(4 bytes @ 0xE0001004) (0004ms, 0995ms total)
T0C78 1534:028 JLINK_IsHalted()  returns TRUE (0003ms, 0998ms total)
T0C78 1534:031 JLINK_Halt()  returns 0x00 (0000ms, 0995ms total)
T0C78 1534:031 JLINK_IsHalted()  returns TRUE (0001ms, 0996ms total)
T0C78 1534:032 JLINK_IsHalted()  returns TRUE (0000ms, 0995ms total)
T0C78 1534:032 JLINK_IsHalted()  returns TRUE (0000ms, 0995ms total)
T0C78 1534:032 JLINK_ReadReg(R15 (PC))  returns 0x08002806 (0000ms, 0995ms total)
T0C78 1534:032 JLINK_ReadReg(XPSR)  returns 0x61000000 (0000ms, 0995ms total)
T0C78 1534:032 JLINK_ClrBPEx(BPHandle = 0x00000006)  returns 0x00 (0000ms, 0995ms total)
T0C78 1534:032 JLINK_ReadMemU32(0xE000ED30, 0x0001 Items, ...) -- CPU_ReadMem(4 bytes @ 0xE000ED30) - Data: 02 00 00 00  returns 0x01 (0001ms, 0996ms total)
T0C78 1534:033 JLINK_ReadMemU32(0xE0001028, 0x0001 Items, ...) -- CPU_ReadMem(4 bytes @ 0xE0001028) - Data: 00 00 00 00  returns 0x01 (0001ms, 0997ms total)
T0C78 1534:034 JLINK_ReadMemU32(0xE0001038, 0x0001 Items, ...) -- CPU_ReadMem(4 bytes @ 0xE0001038) - Data: 00 00 00 00  returns 0x01 (0002ms, 0999ms total)
T0C78 1534:036 JLINK_ReadReg(R0)  returns 0x00000000 (0000ms, 0999ms total)
T0C78 1534:036 JLINK_ReadReg(R1)  returns 0x00000041 (0000ms, 0999ms total)
T0C78 1534:036 JLINK_ReadReg(R2)  returns 0x00000040 (0000ms, 0999ms total)
T0C78 1534:036 JLINK_ReadReg(R3)  returns 0x00004008 (0001ms, 1000ms total)
T0C78 1534:037 JLINK_ReadReg(R4)  returns 0x08002928 (0000ms, 1000ms total)
T0C78 1534:037 JLINK_ReadReg(R5)  returns 0x00000001 (0000ms, 1000ms total)
T0C78 1534:037 JLINK_ReadReg(R6)  returns 0x08002928 (0000ms, 1000ms total)
T0C78 1534:037 JLINK_ReadReg(R7)  returns 0xFFFFFFFF (0000ms, 1000ms total)
T0C78 1534:037 JLINK_ReadReg(R8)  returns 0xFFFFFFFF (0000ms, 1000ms total)
T0C78 1534:037 JLINK_ReadReg(R9)  returns 0xFFFFFFFF (0000ms, 1000ms total)
T0C78 1534:037 JLINK_ReadReg(R10)  returns 0xFFFFFFFF (0000ms, 1000ms total)
T0C78 1534:037 JLINK_ReadReg(R11)  returns 0xFFFFFFFF (0000ms, 1000ms total)
T0C78 1534:037 JLINK_ReadReg(R12)  returns 0x40013824 (0000ms, 1000ms total)
T0C78 1534:037 JLINK_ReadReg(R13 (SP))  returns 0x20001288 (0000ms, 1000ms total)
T0C78 1534:038 JLINK_ReadReg(R14)  returns 0x080009BF (0000ms, 1001ms total)
T0C78 1534:038 JLINK_ReadReg(R15 (PC))  returns 0x08002806 (0000ms, 1001ms total)
T0C78 1534:038 JLINK_ReadReg(XPSR)  returns 0x61000000 (0000ms, 1001ms total)
T0C78 1534:038 JLINK_ReadReg(MSP)  returns 0x20001288 (0000ms, 1001ms total)
T0C78 1534:038 JLINK_ReadReg(PSP)  returns 0xFFFFFFFC (0000ms, 1001ms total)
T0C78 1534:038 JLINK_ReadReg(CFBP)  returns 0x00000000 (0000ms, 1001ms total)
T06B8 1534:038 JLINK_ReadMemEx(0x00000000, 0x0001 Bytes, ..., Flags = 0x02000000) -- CPU_ReadMem(4 bytes @ 0x00000004) -- CPU_ReadMem(64 bytes @ 0x08000000) -- Updating C cache (64 bytes @ 0x08000000) -- Read from C cache (1 bytes @ 0x08000000) - Data: 88  returns 0x01 (0003ms, 1004ms total)
T06B8 1534:041 JLINK_ReadMemEx(0x00000000, 0x0004 Bytes, ..., Flags = 0x02000000) -- Read from C cache (4 bytes @ 0x08000000) - Data: 88 12 00 20  returns 0x04 (0000ms, 1004ms total)
T06B8 1534:043 JLINK_ReadMemEx(0x40013800, 0x0028 Bytes, ..., Flags = 0x02000004) -- CPU_ReadMem(40 bytes @ 0x40013800) - Data: 0D 41 00 00 10 00 00 0A 41 00 00 00 88 13 00 00 ...  returns 0x28 (0001ms, 1005ms total)
T06B8 1534:044 JLINK_ReadMemEx(0x40013828, 0x0004 Bytes, ..., Flags = 0x02000004) -- CPU_ReadMem(4 bytes @ 0x40013828) - Data: 00 00 00 00  returns 0x04 (0001ms, 1006ms total)
T0C78 1570:832 JLINK_ReadMemEx(0x08002806, 0x0002 Bytes, ..., Flags = 0x02000000) -- CPU_ReadMem(64 bytes @ 0x08002800) -- Updating C cache (64 bytes @ 0x08002800) -- Read from C cache (2 bytes @ 0x08002806) - Data: 27 4E  returns 0x02 (0001ms, 1007ms total)
T0C78 1570:833 JLINK_Go() -- CPU_ReadMem(4 bytes @ 0xE0001000) -- CPU_WriteMem(4 bytes @ 0xE0001000) -- CPU_WriteMem(4 bytes @ 0xE0002008) (0001ms, 1008ms total)
T0C78 1570:936 JLINK_IsHalted()  returns FALSE (0000ms, 1008ms total)
T0C78 1571:038 JLINK_IsHalted()  returns FALSE (0000ms, 1008ms total)
T0C78 1571:139 JLINK_IsHalted()  returns FALSE (0000ms, 1008ms total)
T0C78 1571:240 JLINK_IsHalted()  returns FALSE (0000ms, 1008ms total)
T06B8 1571:343 JLINK_ReadMemEx(0x40013800, 0x0028 Bytes, ..., Flags = 0x02000004) -- CPU_ReadMem(40 bytes @ 0x40013800) - Data: 0D 41 00 00 10 00 00 0A 41 00 00 00 88 13 00 00 ...  returns 0x28 (0001ms, 1009ms total)
T06B8 1571:345 JLINK_ReadMemEx(0x40013828, 0x0004 Bytes, ..., Flags = 0x02000004) -- CPU_ReadMem(4 bytes @ 0x40013828) - Data: 00 00 00 00  returns 0x04 (0000ms, 1010ms total)
T0C78 1571:346 JLINK_IsHalted()  returns FALSE (0001ms, 1011ms total)
T0C78 1571:447 JLINK_IsHalted()  returns FALSE (0000ms, 1010ms total)
T0C78 1571:548 JLINK_IsHalted()  returns FALSE (0000ms, 1010ms total)
T0C78 1571:649 JLINK_IsHalted()  returns FALSE (0000ms, 1010ms total)
T0C78 1571:750 JLINK_IsHalted()  returns FALSE (0000ms, 1010ms total)
T0C78 1571:852 JLINK_IsHalted()  returns FALSE (0000ms, 1010ms total)
T06B8 1571:952 JLINK_ReadMemEx(0x40013800, 0x0028 Bytes, ..., Flags = 0x02000004) -- CPU_ReadMem(40 bytes @ 0x40013800) - Data: 0D 41 00 00 10 00 00 0A 41 00 00 00 88 13 00 00 ...  returns 0x28 (0001ms, 1011ms total)
T06B8 1571:953 JLINK_ReadMemEx(0x40013828, 0x0004 Bytes, ..., Flags = 0x02000004) -- CPU_ReadMem(4 bytes @ 0x40013828) - Data: 00 00 00 00  returns 0x04 (0000ms, 1011ms total)
T0C78 1571:954 JLINK_IsHalted()  returns FALSE (0000ms, 1011ms total)
T0C78 1572:056 JLINK_IsHalted()  returns FALSE (0000ms, 1011ms total)
T0C78 1572:157 JLINK_IsHalted()  returns FALSE (0000ms, 1011ms total)
T0C78 1572:258 JLINK_IsHalted()  returns FALSE (0000ms, 1011ms total)
T0C78 1572:359 JLINK_IsHalted()  returns FALSE (0000ms, 1011ms total)
T0C78 1572:460 JLINK_IsHalted()  returns FALSE (0000ms, 1011ms total)
T06B8 1572:560 JLINK_ReadMemEx(0x40013800, 0x0028 Bytes, ..., Flags = 0x02000004) -- CPU_ReadMem(40 bytes @ 0x40013800) - Data: 0D 41 00 00 10 00 00 0A 41 00 00 00 88 13 00 00 ...  returns 0x28 (0001ms, 1012ms total)
T06B8 1572:561 JLINK_ReadMemEx(0x40013828, 0x0004 Bytes, ..., Flags = 0x02000004) -- CPU_ReadMem(4 bytes @ 0x40013828) - Data: 0A 00 00 00  returns 0x04 (0000ms, 1012ms total)
T0C78 1572:562 JLINK_IsHalted()  returns FALSE (0000ms, 1012ms total)
T0C78 1572:663 JLINK_IsHalted()  returns FALSE (0000ms, 1012ms total)
T0C78 1572:765 JLINK_IsHalted()  returns FALSE (0000ms, 1012ms total)
T0C78 1572:866 JLINK_IsHalted()  returns FALSE (0000ms, 1012ms total)
T0C78 1572:967 JLINK_IsHalted()  returns FALSE (0000ms, 1012ms total)
T0C78 1573:069 JLINK_IsHalted()  returns FALSE (0000ms, 1012ms total)
T06B8 1573:170 JLINK_ReadMemEx(0x40013800, 0x0028 Bytes, ..., Flags = 0x02000004) -- CPU_ReadMem(40 bytes @ 0x40013800) - Data: 0D 41 00 00 10 00 00 0A 41 00 00 00 88 13 00 00 ...  returns 0x28 (0001ms, 1013ms total)
T06B8 1573:171 JLINK_ReadMemEx(0x40013828, 0x0004 Bytes, ..., Flags = 0x02000004) -- CPU_ReadMem(4 bytes @ 0x40013828) - Data: 0A 00 00 00  returns 0x04 (0000ms, 1013ms total)
T0C78 1573:172 JLINK_IsHalted()  returns FALSE (0000ms, 1013ms total)
T0C78 1573:273 JLINK_IsHalted()  returns FALSE (0001ms, 1014ms total)
T0C78 1573:375 JLINK_IsHalted()  returns FALSE (0000ms, 1013ms total)
T0C78 1573:477 JLINK_IsHalted()  returns FALSE (0000ms, 1013ms total)
T0C78 1573:579 JLINK_IsHalted()  returns FALSE (0000ms, 1013ms total)
T0C78 1573:681 JLINK_IsHalted()  returns FALSE (0000ms, 1013ms total)
T06B8 1573:785 JLINK_ReadMemEx(0x40013800, 0x0028 Bytes, ..., Flags = 0x02000004) -- CPU_ReadMem(40 bytes @ 0x40013800) - Data: 0D 41 00 00 10 00 00 0A 41 00 00 00 88 13 00 00 ...  returns 0x28 (0001ms, 1014ms total)
T06B8 1573:786 JLINK_ReadMemEx(0x40013828, 0x0004 Bytes, ..., Flags = 0x02000004) -- CPU_ReadMem(4 bytes @ 0x40013828) - Data: 0A 00 00 00  returns 0x04 (0001ms, 1015ms total)
T0C78 1573:788 JLINK_IsHalted()  returns FALSE (0001ms, 1016ms total)
T0C78 1573:890 JLINK_IsHalted()  returns FALSE (0000ms, 1015ms total)
T0C78 1573:991 JLINK_IsHalted()  returns FALSE (0000ms, 1015ms total)
T0C78 1574:092 JLINK_IsHalted()  returns FALSE (0001ms, 1016ms total)
T0C78 1574:194 JLINK_IsHalted()  returns FALSE (0001ms, 1016ms total)
T06B8 1574:297 JLINK_ReadMemEx(0x40013800, 0x0028 Bytes, ..., Flags = 0x02000004) -- CPU_ReadMem(40 bytes @ 0x40013800) - Data: 0D 41 00 00 10 00 00 0A 41 00 00 00 88 13 00 00 ...  returns 0x28 (0000ms, 1015ms total)
T06B8 1574:297 JLINK_ReadMemEx(0x40013828, 0x0004 Bytes, ..., Flags = 0x02000004) -- CPU_ReadMem(4 bytes @ 0x40013828) - Data: 0A 00 00 00  returns 0x04 (0001ms, 1016ms total)
T0C78 1574:298 JLINK_IsHalted()  returns FALSE (0000ms, 1016ms total)
T0C78 1574:400 JLINK_IsHalted()  returns FALSE (0000ms, 1016ms total)
T0C78 1574:502 JLINK_IsHalted()  returns FALSE (0000ms, 1016ms total)
T0C78 1574:602 JLINK_IsHalted()  returns FALSE (0001ms, 1017ms total)
T0C78 1574:704 JLINK_IsHalted()  returns FALSE (0001ms, 1017ms total)
T0C78 1574:806 JLINK_IsHalted()  returns FALSE (0000ms, 1016ms total)
T06B8 1574:912 JLINK_ReadMemEx(0x40013800, 0x0028 Bytes, ..., Flags = 0x02000004) -- CPU_ReadMem(40 bytes @ 0x40013800) - Data: 0D 41 00 00 10 00 00 0A 41 00 00 00 88 13 00 00 ...  returns 0x28 (0000ms, 1016ms total)
T06B8 1574:912 JLINK_ReadMemEx(0x40013828, 0x0004 Bytes, ..., Flags = 0x02000004) -- CPU_ReadMem(4 bytes @ 0x40013828) - Data: 0A 00 00 00  returns 0x04 (0001ms, 1017ms total)
T0C78 1574:913 JLINK_IsHalted()  returns FALSE (0001ms, 1018ms total)
T0C78 1575:014 JLINK_IsHalted()  returns FALSE (0001ms, 1018ms total)
T0C78 1575:116 JLINK_IsHalted()  returns FALSE (0000ms, 1017ms total)
T0C78 1575:218 JLINK_IsHalted()  returns FALSE (0001ms, 1018ms total)
T0C78 1575:320 JLINK_IsHalted()  returns FALSE (0000ms, 1017ms total)
T06B8 1575:422 JLINK_ReadMemEx(0x40013800, 0x0028 Bytes, ..., Flags = 0x02000004) -- CPU_ReadMem(40 bytes @ 0x40013800) - Data: AA AA AA AA AA AA AA AA AA AA AA AA AA AA AA AA ...  returns 0xFFFFFFFF (0001ms, 1018ms total)
T06B8 1575:423 JLINK_ReadMemEx(0x40013800, 0x0004 Bytes, ..., Flags = 0x02000004) -- CPU_ReadMem(4 bytes @ 0x40013800) - Data: AA AA AA AA  returns 0xFFFFFFFF (0002ms, 1020ms total)
T06B8 1575:425 JLINK_ReadMemEx(0x40013804, 0x0004 Bytes, ..., Flags = 0x02000004) -- CPU_ReadMem(4 bytes @ 0x40013804) - Data: AA AA AA AA  returns 0xFFFFFFFF (0001ms, 1021ms total)
T06B8 1575:426 JLINK_ReadMemEx(0x40013808, 0x0004 Bytes, ..., Flags = 0x02000004) -- CPU_ReadMem(4 bytes @ 0x40013808) - Data: AA AA AA AA  returns 0xFFFFFFFF (0002ms, 1023ms total)
T06B8 1575:428 JLINK_ReadMemEx(0x4001380C, 0x0004 Bytes, ..., Flags = 0x02000004) -- CPU_ReadMem(4 bytes @ 0x4001380C) - Data: AA AA AA AA  returns 0xFFFFFFFF (0001ms, 1024ms total)
T06B8 1575:429 JLINK_ReadMemEx(0x40013810, 0x0004 Bytes, ..., Flags = 0x02000004) -- CPU_ReadMem(4 bytes @ 0x40013810) - Data: AA AA AA AA  returns 0xFFFFFFFF (0001ms, 1025ms total)
T06B8 1575:430 JLINK_ReadMemEx(0x40013814, 0x0004 Bytes, ..., Flags = 0x02000004) -- CPU_ReadMem(4 bytes @ 0x40013814) - Data: AA AA AA AA  returns 0xFFFFFFFF (0002ms, 1027ms total)
T06B8 1575:432 JLINK_ReadMemEx(0x40013818, 0x0004 Bytes, ..., Flags = 0x02000004) -- CPU_ReadMem(4 bytes @ 0x40013818) - Data: AA AA AA AA  returns 0xFFFFFFFF (0001ms, 1028ms total)
T06B8 1575:433 JLINK_ReadMemEx(0x4001381C, 0x0004 Bytes, ..., Flags = 0x02000004) -- CPU_ReadMem(4 bytes @ 0x4001381C) - Data: AA AA AA AA  returns 0xFFFFFFFF (0001ms, 1029ms total)
T06B8 1575:434 JLINK_ReadMemEx(0x40013820, 0x0004 Bytes, ..., Flags = 0x02000004) -- CPU_ReadMem(4 bytes @ 0x40013820) - Data: AA AA AA AA  returns 0xFFFFFFFF (0001ms, 1030ms total)
T06B8 1575:435 JLINK_ReadMemEx(0x40013824, 0x0004 Bytes, ..., Flags = 0x02000004) -- CPU_ReadMem(4 bytes @ 0x40013824) - Data: AA AA AA AA  returns 0xFFFFFFFF (0001ms, 1031ms total)
T06B8 1575:436 JLINK_ReadMemEx(0x40013828, 0x0004 Bytes, ..., Flags = 0x02000004) -- CPU_ReadMem(4 bytes @ 0x40013828) - Data: AA AA AA AA  returns 0xFFFFFFFF (0001ms, 1032ms total)
T06B8 1575:437 JLINK_ReadMemEx(0x40013828, 0x0004 Bytes, ..., Flags = 0x02000004) -- CPU_ReadMem(4 bytes @ 0x40013828) - Data: AA AA AA AA  returns 0xFFFFFFFF (0001ms, 1033ms total)
T0C78 1575:504 JLINK_IsHalted()  returns ERROR (0001ms, 1034ms total)
T0C78 1575:506 JLINK_Halt()CPU could not be halted  returns 0x01 (0002ms, 1035ms total)
T0C78 1575:508 JLINK_IsHalted()  returns ERROR (0002ms, 1037ms total)
T0C78 1575:510 JLINK_IsHalted()  returns ERROR (0002ms, 1037ms total)
T0C78 1575:512 JLINK_IsHalted()  returns ERROR (0002ms, 1037ms total)
T0C78 1575:514 JLINK_ReadReg(R15 (PC)) -- CPU is running
  ***** Error: Can not read register 15 (R15) while CPU is running  returns 0x00000000 (0002ms, 1037ms total)
T0C78 1575:517 JLINK_ReadReg(XPSR) -- CPU is running
  ***** Error: Can not read register 16 (XPSR) while CPU is running  returns 0x00000000 (0002ms, 1039ms total)
T0C78 1575:519 JLINK_ReadMemU32(0xE000ED30, 0x0001 Items, ...) -- CPU_ReadMem(4 bytes @ 0xE000ED30)  returns 0xFFFFFFFF (0001ms, 1040ms total)
T0C78 1575:520 JLINK_ReadReg(R0) -- CPU is running
  ***** Error: Can not read register 0 (R0) while CPU is running  returns 0x00000000 (0002ms, 1042ms total)
T0C78 1575:522 JLINK_ReadReg(R1) -- CPU is running
  ***** Error: Can not read register 1 (R1) while CPU is running  returns 0x00000000 (0002ms, 1044ms total)
T0C78 1575:524 JLINK_ReadReg(R2) -- CPU is running
  ***** Error: Can not read register 2 (R2) while CPU is running  returns 0x00000000 (0002ms, 1046ms total)
T0C78 1575:526 JLINK_ReadReg(R3) -- CPU is running
  ***** Error: Can not read register 3 (R3) while CPU is running  returns 0x00000000 (0002ms, 1048ms total)
T0C78 1575:528 JLINK_ReadReg(R4) -- CPU is running
  ***** Error: Can not read register 4 (R4) while CPU is running  returns 0x00000000 (0002ms, 1050ms total)
T0C78 1575:530 JLINK_ReadReg(R5) -- CPU is running
  ***** Error: Can not read register 5 (R5) while CPU is running  returns 0x00000000 (0002ms, 1052ms total)
T0C78 1575:532 JLINK_ReadReg(R6) -- CPU is running
  ***** Error: Can not read register 6 (R6) while CPU is running  returns 0x00000000 (0002ms, 1054ms total)
T0C78 1575:534 JLINK_ReadReg(R7) -- CPU is running
  ***** Error: Can not read register 7 (R7) while CPU is running  returns 0x00000000 (0003ms, 1057ms total)
T0C78 1575:537 JLINK_ReadReg(R8) -- CPU is running
  ***** Error: Can not read register 8 (R8) while CPU is running  returns 0x00000000 (0002ms, 1059ms total)
